Circuit: * D:\Christian\Projekt\Multiphase\B_Hardware\Temperaturmessung\Simulation\LTSpice\PT1000_Circuit_v02.asc

Instance "m:u1:114": Length shorter than recommended for a level 1 MOSFET.
Instance "m:u1:113": Length shorter than recommended for a level 1 MOSFET.
Instance "m:u1:2": Length shorter than recommended for a level 1 MOSFET.
Instance "m:u1:1": Length shorter than recommended for a level 1 MOSFET.
Instance "m:u1:9c": Length shorter than recommended for a level 1 MOSFET.
Instance "m:u1:9": Length shorter than recommended for a level 1 MOSFET.
Instance "m:u1:8": Length shorter than recommended for a level 1 MOSFET.
Instance "m:u1:4": Length shorter than recommended for a level 1 MOSFET.
Instance "m:u1:3": Length shorter than recommended for a level 1 MOSFET.
Instance "m:u1:7": Length shorter than recommended for a level 1 MOSFET.
Direct Newton iteration failed to find .op point.  (Use ".option noopiter" to skip.)
Starting Gmin stepping
Gmin = 10
Gmin = 1.07374
Gmin = 0.115292
Gmin = 0.0123794
Gmin = 0.00132923
Gmin = 0.000142725
Gmin = 1.5325e-005
Gmin = 1.6455e-006
Gmin = 1.76685e-007
Gmin = 1.89714e-008
Gmin = 2.03704e-009
Gmin = 2.18725e-010
Gmin = 2.34854e-011
Gmin = 2.52173e-012
Gmin = 2.70769e-013
Gmin = 0
Gmin stepping succeeded in finding the operating point.

Semiconductor Device Operating Points:
                        --- Diodes ---
Name:    d:u1:2      d:u1:1      d:u1:8      d:u1:7      d:u1:6
Model:    u1:dx       u1:dx       u1:dx       u1:dx       u1:dx
Id:     -1.13e-12   -1.15e-12   -1.10e-13   -1.10e-13   -4.91e-12
Vd:     -1.12e+00   -1.14e+00   -1.00e-01   -1.00e-01   -4.90e+00
Req:     1.00e+12    1.00e+12    9.92e+11    9.92e+11    1.00e+12
CAP:     6.86e-14    6.84e-14    9.53e-14    9.53e-14    4.12e-14

Name:    d:u1:5      d:u1:4      d:u1:3
Model:    u1:dx       u1:dx       u1:dx
Id:     -4.91e-12   -4.79e-13   -3.74e-12
Vd:     -4.90e+00   -4.69e-01   -3.73e+00
Req:     1.00e+12    1.00e+12    1.00e+12
CAP:     4.12e-14    8.25e-14    4.60e-14

                        --- MOSFET Transistors ---
Name:       m:u1:114    m:u1:113     m:u1:2      m:u1:1      m:u1:9c
Model:       u1:nox      u1:pox      u1:nix      u1:nix      u1:nix
Id:          1.04e-04   -2.04e-04    9.54e-12    9.54e-12    7.62e-12
Vgs:         7.83e-01   -7.96e-01   -3.69e-01   -3.69e-01    9.01e-01
Vds:         1.87e+00   -3.15e+00    4.53e+00    4.53e+00    1.10e-08
Vbs:         0.00e+00    0.00e+00   -4.69e-01   -4.69e-01   -4.69e-01
Vth:         7.50e-01   -7.50e-01    7.50e-01    7.50e-01    7.50e-01
Vdsat:       3.26e-02   -4.57e-02    0.00e+00    0.00e+00    1.51e-01
Gm:          6.36e-03    8.92e-03    0.00e+00    0.00e+00    3.78e-11
Gds:         0.00e+00    0.00e+00    0.00e+00    0.00e+00    5.17e-04
Gmb:         0.00e+00    0.00e+00    0.00e+00    0.00e+00    0.00e+00
Cbd:         1.28e-13    1.05e-13    8.69e-14    8.69e-14    7.43e-13
Cbs:         2.34e-13    2.34e-13    1.86e-13    1.86e-13    7.43e-13
Cgsov:       1.00e-13    1.00e-13    1.00e-13    1.00e-13    4.00e-13
Cgdov:       1.00e-13    1.00e-13    1.00e-13    1.00e-13    4.00e-13
Cgbov:       1.88e-13    1.88e-13    1.00e-13    1.00e-13    4.00e-13
Cgs:         0.00e+00    0.00e+00    0.00e+00    0.00e+00    0.00e+00
Cgd:         0.00e+00    0.00e+00    0.00e+00    0.00e+00    0.00e+00
Cgb:         0.00e+00    0.00e+00    0.00e+00    0.00e+00    0.00e+00

Name:        m:u1:9      m:u1:8      m:u1:4      m:u1:3      m:u1:7
Model:       u1:nix      u1:nix      u1:pix      u1:pix      u1:pix
Id:          3.79e-12    5.11e-12   -7.50e-05   -7.50e-05   -5.11e-12
Vgs:         6.34e-01    6.34e-01   -1.17e+00   -1.17e+00    2.43e+00
Vds:         4.69e-01    6.34e-01   -9.06e-01   -9.06e-01   -6.34e-01
Vbs:         0.00e+00    0.00e+00    0.00e+00    0.00e+00    0.00e+00
Vth:         7.50e-01    7.50e-01   -7.50e-01   -7.50e-01   -7.50e-01
Vdsat:       0.00e+00    0.00e+00   -4.19e-01   -4.19e-01    0.00e+00
Gm:          0.00e+00    0.00e+00    3.58e-04    3.58e-04    0.00e+00
Gds:         0.00e+00    0.00e+00    0.00e+00    0.00e+00    0.00e+00
Gmb:         0.00e+00    0.00e+00    0.00e+00    0.00e+00    0.00e+00
Cbd:         7.43e-13    6.99e-13    1.60e-13    1.60e-13    6.99e-13
Cbs:         9.36e-13    9.36e-13    2.34e-13    2.34e-13    9.36e-13
Cgsov:       4.00e-13    4.00e-13    1.00e-13    1.00e-13    4.00e-13
Cgdov:       4.00e-13    4.00e-13    1.00e-13    1.00e-13    4.00e-13
Cgbov:       4.00e-13    4.00e-13    1.00e-13    1.00e-13    4.00e-13
Cgs:         0.00e+00    0.00e+00    0.00e+00    0.00e+00    0.00e+00
Cgd:         0.00e+00    0.00e+00    0.00e+00    0.00e+00    0.00e+00
Cgb:         0.00e+00    0.00e+00    0.00e+00    0.00e+00    0.00e+00



Date: Tue Jul 25 20:33:56 2017
Total elapsed time: 6.755 seconds.

tnom = 27
temp = 27
method = trap
totiter = 412
traniter = 0
tranpoints = 0
accept = 0
rejected = 0
matrix size = 85
fillins = 78
solver = Normal
Matrix Compiler1: 10.96 KB object code size
Matrix Compiler2: 8.95 KB object code size  1.9/1.5/[0.4]


